
T3118 000:070 SEGGER J-Link V6.20i Log File (0001ms, 0037ms total)
T3118 000:070 DLL Compiled: Nov 17 2017 17:46:22 (0001ms, 0037ms total)
T3118 000:070 Logging started @ 2020-05-30 18:02 (0001ms, 0037ms total)
T3118 000:071 JLINK_SetWarnOutHandler(...) (0000ms, 0037ms total)
T3118 000:071 JLINK_OpenEx(...)
Firmware: J-Link V9 compiled May 17 2019 09:50:41
Hardware: V9.50
S/N: 59518294
Feature(s): GDB, RDI, FlashBP, FlashDL, JFlash, RDDI
TELNET listener socket opened on port 19021WEBSRV 
Starting webserver (0029ms, 0066ms total)
T3118 000:071 WEBSRV Webserver running on local port 19080 (0029ms, 0066ms total)
T3118 000:071   returns O.K. (0029ms, 0066ms total)
T3118 000:100 JLINK_SetErrorOutHandler(...) (0002ms, 0068ms total)
T3118 000:102 JLINK_ExecCommand("ProjectFile = "D:\PRJ\Nordic\myused\nRF5_SDK_15.3.0_59ac345\examples\proprietary_rf\esb_low_power_prx\pca10040\blank\arm5_no_packs\JLinkSettings.ini"", ...).   returns 0x00 (0240ms, 0308ms total)
T3118 000:345 JLINK_ExecCommand("Device = nRF52832_xxAA", ...). Device "NRF52832_XXAA" selected.  returns 0x00 (0003ms, 0311ms total)
T3118 000:348 JLINK_ExecCommand("DisableConnectionTimeout", ...).   returns 0x01 (0000ms, 0311ms total)
T3118 000:348 JLINK_GetHardwareVersion()  returns 0x17318 (0000ms, 0311ms total)
T3118 000:348 JLINK_GetDLLVersion()  returns 62009 (0000ms, 0311ms total)
T3118 000:348 JLINK_GetFirmwareString(...) (0000ms, 0311ms total)
T3118 000:354 JLINK_GetDLLVersion()  returns 62009 (0000ms, 0311ms total)
T3118 000:354 JLINK_GetCompileDateTime() (0000ms, 0311ms total)
T3118 000:356 JLINK_GetFirmwareString(...) (0000ms, 0311ms total)
T3118 000:358 JLINK_GetHardwareVersion()  returns 0x17318 (0000ms, 0311ms total)
T3118 000:365 JLINK_TIF_Select(JLINKARM_TIF_SWD)  returns 0x00 (0001ms, 0312ms total)
T3118 000:366 JLINK_SetSpeed(5000) (0000ms, 0312ms total)
T3118 000:366 JLINK_GetId() >0x10B TIF> >0x10F TIF> >0x10B TIF>Found SW-DP with ID 0x2BA01477 >0x0D TIF> >0x28 TIF> >0x0D TIF> >0x28 TIF> >0x10B TIF>Found SW-DP with ID 0x2BA01477 >0x0D TIF> >0x28 TIF> >0x0D TIF> >0x28 TIF> >0x0D TIF> >0x28 TIF> >0x0D TIF> >0x28 TIF> >0x35 TIF> >0x0D TIF> >0x28 TIF>Scanning AP map to find all available APs >0x0D TIF> >0x28 TIF> >0x35 TIF> >0x35 TIF> >0x0D TIF> >0x28 TIF> >0x35 TIF> >0x35 TIF> >0x0D TIF> >0x28 TIF> >0x35 TIF> >0x35 TIF>
AP[2]: Stopped AP scan as end of AP map has been reachedAP[0]: AHB-AP (IDR: 0x24770011)AP[1]: JTAG-AP (IDR: 0x02880000)Iterating through AP map to find AHB-AP to use >0x42 TIF> >0x28 TIF> >0x0D TIF> >0x28 TIF> >0x35 TIF> >0x35 TIF> >0x42 TIF> >0x28 TIF> >0x0D TIF> >0x28 TIF> >0x0D TIF> >0x28 TIF> >0x35 TIF> >0x35 TIF>AP[0]: Core foundAP[0]: AHB-AP ROM base: 0xE00FF000 >0x0D TIF> >0x28 TIF> >0x0D TIF> >0x28 TIF> >0x0D TIF> >0x28 TIF> >0x35 TIF> >0x35 TIF>
CPUID register: 0x410FC241. Implementer code: 0x41 (ARM)Found Cortex-M4 r0p1, Little endian. -- CPU_ReadMem(4 bytes @ 0xE000EDF0) -- CPU_WriteMem(4 bytes @ 0xE000EDF0) -- CPU_ReadMem(4 bytes @ 0xE0002000)FPUnit: 6 code (BP) slots and 2 literal slots -- CPU_ReadMem(4 bytes @ 0xE000EDFC) -- CPU_WriteMem(4 bytes @ 0xE000EDFC) -- CPU_ReadMem(4 bytes @ 0xE0001000) -- CPU_WriteMem(4 bytes @ 0xE0001000) -- CPU_ReadMem(4 bytes @ 0xE000ED88) -- CPU_WriteMem(4 bytes @ 0xE000ED88)
 -- CPU_ReadMem(4 bytes @ 0xE000ED88) -- CPU_WriteMem(4 bytes @ 0xE000ED88)CoreSight components:ROMTbl[0] @ E00FF000 -- CPU_ReadMem(16 bytes @ 0xE00FF000) -- CPU_ReadMem(16 bytes @ 0xE000EFF0) -- CPU_ReadMem(16 bytes @ 0xE000EFE0)ROMTbl[0][0]: E000E000, CID: B105E00D, PID: 000BB00C SCS -- CPU_ReadMem(16 bytes @ 0xE0001FF0) -- CPU_ReadMem(16 bytes @ 0xE0001FE0)ROMTbl[0][1]: E0001000, CID: B105E00D, PID: 003BB002 DWT -- CPU_ReadMem(16 bytes @ 0xE0002FF0) -- CPU_ReadMem(16 bytes @ 0xE0002FE0)
ROMTbl[0][2]: E0002000, CID: B105E00D, PID: 002BB003 FPB -- CPU_ReadMem(16 bytes @ 0xE0000FF0) -- CPU_ReadMem(16 bytes @ 0xE0000FE0)ROMTbl[0][3]: E0000000, CID: B105E00D, PID: 003BB001 ITM -- CPU_ReadMem(16 bytes @ 0xE00FF010) -- CPU_ReadMem(16 bytes @ 0xE0040FF0) -- CPU_ReadMem(16 bytes @ 0xE0040FE0)ROMTbl[0][4]: E0040000, CID: B105900D, PID: 000BB9A1 TPIU -- CPU_ReadMem(16 bytes @ 0xE0041FF0) -- CPU_ReadMem(16 bytes @ 0xE0041FE0)ROMTbl[0][5]: E0041000, CID: B105900D, PID: 000BB925 ETM >0x35 TIF>
  returns 0x2BA01477 (0264ms, 0576ms total)
T3118 000:630 JLINK_GetDLLVersion()  returns 62009 (0000ms, 0576ms total)
T3118 000:630 JLINK_CORE_GetFound()  returns 0xE0000FF (0000ms, 0576ms total)
T3118 000:630 JLINK_GetDebugInfo(0x100 = JLINKARM_ROM_TABLE_ADDR_INDEX) -- Value=0xE00FF000  returns 0x00 (0000ms, 0576ms total)
T3118 000:632 JLINK_GetDebugInfo(0x100 = JLINKARM_ROM_TABLE_ADDR_INDEX) -- Value=0xE00FF000  returns 0x00 (0000ms, 0576ms total)
T3118 000:632 JLINK_GetDebugInfo(0x101 = JLINKARM_DEBUG_INFO_ETM_ADDR_INDEX) -- Value=0xE0041000  returns 0x00 (0000ms, 0576ms total)
T3118 000:632 JLINK_GetDebugInfo(0x102 = JLINKARM_DEBUG_INFO_MTB_ADDR_INDEX) -- Value=0x00000000  returns 0x00 (0000ms, 0576ms total)
T3118 000:632 JLINK_GetDebugInfo(0x103 = JLINKARM_DEBUG_INFO_TPIU_ADDR_INDEX) -- Value=0xE0040000  returns 0x00 (0000ms, 0576ms total)
T3118 000:632 JLINK_GetDebugInfo(0x104 = JLINKARM_DEBUG_INFO_ITM_ADDR_INDEX) -- Value=0xE0000000  returns 0x00 (0000ms, 0576ms total)
T3118 000:632 JLINK_GetDebugInfo(0x105 = JLINKARM_DEBUG_INFO_DWT_ADDR_INDEX) -- Value=0xE0001000  returns 0x00 (0000ms, 0576ms total)
T3118 000:632 JLINK_GetDebugInfo(0x106 = JLINKARM_DEBUG_INFO_FPB_ADDR_INDEX) -- Value=0xE0002000  returns 0x00 (0000ms, 0576ms total)
T3118 000:632 JLINK_GetDebugInfo(0x107 = JLINKARM_DEBUG_INFO_NVIC_ADDR_INDEX) -- Value=0xE000E000  returns 0x00 (0000ms, 0576ms total)
T3118 000:632 JLINK_GetDebugInfo(0x10C = JLINKARM_DEBUG_INFO_DBG_ADDR_INDEX) -- Value=0xE000EDF0  returns 0x00 (0000ms, 0576ms total)
T3118 000:632 JLINK_ReadMemU32(0xE000EF40, 0x0001 Items, ...) -- CPU_ReadMem(4 bytes @ 0xE000EF40) - Data: 21 00 11 10  returns 0x01 (0000ms, 0576ms total)
T3118 000:632 JLINK_ReadMemU32(0xE000EF44, 0x0001 Items, ...) -- CPU_ReadMem(4 bytes @ 0xE000EF44) - Data: 11 00 00 11  returns 0x01 (0001ms, 0577ms total)
T3118 000:633 JLINK_ReadMemU32(0xE000ED00, 0x0001 Items, ...) -- CPU_ReadMem(4 bytes @ 0xE000ED00) - Data: 41 C2 0F 41  returns 0x01 (0000ms, 0577ms total)
T3118 000:633 JLINK_SetResetType(JLINKARM_CM3_RESET_TYPE_NORMAL)  returns JLINKARM_CM3_RESET_TYPE_NORMAL (0000ms, 0577ms total)
T3118 000:633 JLINK_Reset() -- CPU is running -- CPU_WriteMem(4 bytes @ 0xE000EDF0) -- CPU is running -- CPU_WriteMem(4 bytes @ 0xE000EDFC)Reset: Halt core after reset via DEMCR.VC_CORERESET. >0x35 TIF>Reset: Reset device via AIRCR.SYSRESETREQ. -- CPU is running -- CPU_WriteMem(4 bytes @ 0xE000ED0C) >0x0D TIF> >0x28 TIF> -- CPU_ReadMem(4 bytes @ 0xE000EDF0) -- CPU_ReadMem(4 bytes @ 0xE000EDF0) -- CPU is running -- CPU_WriteMem(4 bytes @ 0xE000EDF0) -- CPU is running -- CPU_WriteMem(4 bytes @ 0xE000EDFC)
 -- CPU_ReadMem(4 bytes @ 0xE000EDF0) -- CPU_WriteMem(4 bytes @ 0xE0002000) -- CPU_ReadMem(4 bytes @ 0xE000EDFC) -- CPU_ReadMem(4 bytes @ 0xE0001000) (0068ms, 0645ms total)
T3118 000:701 JLINK_Halt()  returns 0x00 (0000ms, 0645ms total)
T3118 000:701 JLINK_IsHalted()  returns TRUE (0000ms, 0645ms total)
T3118 000:701 JLINK_ReadMemU32(0xE000EDF0, 0x0001 Items, ...) -- CPU_ReadMem(4 bytes @ 0xE000EDF0) - Data: 03 00 03 00  returns 0x01 (0000ms, 0645ms total)
T3118 000:701 JLINK_WriteU32(0xE000EDF0, 0xA05F0003) -- CPU_WriteMem(4 bytes @ 0xE000EDF0)  returns 0x00 (0000ms, 0645ms total)
T3118 000:701 JLINK_WriteU32(0xE000EDFC, 0x01000000) -- CPU_WriteMem(4 bytes @ 0xE000EDFC)  returns 0x00 (0001ms, 0646ms total)
T3118 000:710 JLINK_GetHWStatus(...)  returns 0x00 (0000ms, 0646ms total)
T3118 000:715 JLINK_GetNumBPUnits(Type = 0xFFFFFF00)  returns 0x06 (0000ms, 0646ms total)
T3118 000:715 JLINK_GetNumBPUnits(Type = 0xF0)  returns 0x2000 (0000ms, 0646ms total)
T3118 000:715 JLINK_GetNumWPUnits()  returns 0x04 (0000ms, 0646ms total)
T3118 000:720 JLINK_GetSpeed()  returns 0xFA0 (0001ms, 0647ms total)
T3118 000:725 JLINK_ReadMemU32(0xE000E004, 0x0001 Items, ...) -- CPU_ReadMem(4 bytes @ 0xE000E004) - Data: 01 00 00 00  returns 0x01 (0000ms, 0647ms total)
T3118 000:725 JLINK_ReadMemU32(0xE000E004, 0x0001 Items, ...) -- CPU_ReadMem(4 bytes @ 0xE000E004) - Data: 01 00 00 00  returns 0x01 (0001ms, 0648ms total)
T3118 000:726 JLINK_WriteMem(0xE0001000, 0x001C Bytes, ...) - Data: 01 00 00 00 00 00 00 00 00 00 00 00 00 00 00 00 ... -- CPU_WriteMem(28 bytes @ 0xE0001000)  returns 0x1C (0001ms, 0649ms total)
T3118 000:727 JLINK_ReadMem (0xE0001000, 0x001C Bytes, ...) -- CPU_ReadMem(28 bytes @ 0xE0001000) - Data: 01 00 00 40 00 00 00 00 00 00 00 00 00 00 00 00 ...  returns 0x00 (0000ms, 0649ms total)
T3118 000:727 JLINK_Halt()  returns 0x00 (0000ms, 0649ms total)
T3118 000:727 JLINK_IsHalted()  returns TRUE (0000ms, 0649ms total)
T3118 000:731 JLINK_WriteMem(0x20000000, 0x06E4 Bytes, ...) - Data: 00 BE 0A E0 0D 78 2D 06 68 40 08 24 40 00 00 D3 ... -- CPU_WriteMem(1764 bytes @ 0x20000000)  returns 0x6E4 (0007ms, 0656ms total)
T3118 000:738 JLINK_WriteReg(R0, 0x00000000)  returns 0x00 (0000ms, 0656ms total)
T3118 000:738 JLINK_WriteReg(R1, 0x03D09000)  returns 0x00 (0000ms, 0656ms total)
T3118 000:738 JLINK_WriteReg(R2, 0x00000001)  returns 0x00 (0000ms, 0656ms total)
T3118 000:738 JLINK_WriteReg(R3, 0x00000000)  returns 0x00 (0000ms, 0656ms total)
T3118 000:738 JLINK_WriteReg(R4, 0x00000000)  returns 0x00 (0000ms, 0656ms total)
T3118 000:738 JLINK_WriteReg(R5, 0x00000000)  returns 0x00 (0000ms, 0656ms total)
T3118 000:738 JLINK_WriteReg(R6, 0x00000000)  returns 0x00 (0000ms, 0656ms total)
T3118 000:738 JLINK_WriteReg(R7, 0x00000000)  returns 0x00 (0000ms, 0656ms total)
T3118 000:738 JLINK_WriteReg(R8, 0x00000000)  returns 0x00 (0000ms, 0656ms total)
T3118 000:738 JLINK_WriteReg(R9, 0x200006E0)  returns 0x00 (0000ms, 0656ms total)
T3118 000:738 JLINK_WriteReg(R10, 0x00000000)  returns 0x00 (0000ms, 0656ms total)
T3118 000:738 JLINK_WriteReg(R11, 0x00000000)  returns 0x00 (0000ms, 0656ms total)
T3118 000:738 JLINK_WriteReg(R12, 0x00000000)  returns 0x00 (0000ms, 0656ms total)
T3118 000:738 JLINK_WriteReg(R13 (SP), 0x20002000)  returns 0x00 (0000ms, 0656ms total)
T3118 000:738 JLINK_WriteReg(R14, 0x20000001)  returns 0x00 (0000ms, 0656ms total)
T3118 000:738 JLINK_WriteReg(R15 (PC), 0x20000020)  returns 0x00 (0000ms, 0656ms total)
T3118 000:738 JLINK_WriteReg(XPSR, 0x01000000)  returns 0x00 (0000ms, 0656ms total)
T3118 000:738 JLINK_WriteReg(MSP, 0x20002000)  returns 0x00 (0000ms, 0656ms total)
T3118 000:738 JLINK_WriteReg(PSP, 0x20002000)  returns 0x00 (0000ms, 0656ms total)
T3118 000:738 JLINK_WriteReg(CFBP, 0x00000000)  returns 0x00 (0000ms, 0656ms total)
T3118 000:738 JLINK_SetBPEx(Addr = 0x20000000, Type = 0xFFFFFFF2) -- CPU_ReadMem(2 bytes @ 0x20000000)  returns 0x00000001 (0001ms, 0657ms total)
T3118 000:739 JLINK_Go() -- CPU_WriteMem(2 bytes @ 0x20000000) -- CPU_ReadMem(4 bytes @ 0xE0001000) -- CPU_WriteMem(4 bytes @ 0xE0002008) -- CPU_WriteMem(4 bytes @ 0xE000200C) -- CPU_WriteMem(4 bytes @ 0xE0002010) -- CPU_WriteMem(4 bytes @ 0xE0002014) -- CPU_WriteMem(4 bytes @ 0xE0002018) -- CPU_WriteMem(4 bytes @ 0xE000201C) -- CPU_WriteMem(4 bytes @ 0xE0001004) (0003ms, 0660ms total)
T3118 000:742 JLINK_IsHalted() -- CPU_ReadMem(2 bytes @ 0x20000000)  returns TRUE (0002ms, 0662ms total)
T3118 000:744 JLINK_ReadReg(R15 (PC))  returns 0x20000000 (0000ms, 0660ms total)
T3118 000:744 JLINK_ClrBPEx(BPHandle = 0x00000001)  returns 0x00 (0000ms, 0660ms total)
T3118 000:744 JLINK_ReadReg(R0)  returns 0x00000000 (0000ms, 0660ms total)
T3118 000:745 JLINK_WriteReg(R0, 0x00000000)  returns 0x00 (0000ms, 0660ms total)
T3118 000:745 JLINK_WriteReg(R1, 0x00001000)  returns 0x00 (0000ms, 0660ms total)
T3118 000:745 JLINK_WriteReg(R2, 0x000000FF)  returns 0x00 (0000ms, 0660ms total)
T3118 000:745 JLINK_WriteReg(R3, 0x00000000)  returns 0x00 (0000ms, 0660ms total)
T3118 000:745 JLINK_WriteReg(R4, 0x00000000)  returns 0x00 (0000ms, 0660ms total)
T3118 000:745 JLINK_WriteReg(R5, 0x00000000)  returns 0x00 (0000ms, 0660ms total)
T3118 000:745 JLINK_WriteReg(R6, 0x00000000)  returns 0x00 (0000ms, 0660ms total)
T3118 000:745 JLINK_WriteReg(R7, 0x00000000)  returns 0x00 (0000ms, 0660ms total)
T3118 000:745 JLINK_WriteReg(R8, 0x00000000)  returns 0x00 (0000ms, 0660ms total)
T3118 000:745 JLINK_WriteReg(R9, 0x200006E0)  returns 0x00 (0000ms, 0660ms total)
T3118 000:745 JLINK_WriteReg(R10, 0x00000000)  returns 0x00 (0000ms, 0660ms total)
T3118 000:745 JLINK_WriteReg(R11, 0x00000000)  returns 0x00 (0000ms, 0660ms total)
T3118 000:745 JLINK_WriteReg(R12, 0x00000000)  returns 0x00 (0000ms, 0660ms total)
T3118 000:745 JLINK_WriteReg(R13 (SP), 0x20002000)  returns 0x00 (0000ms, 0660ms total)
T3118 000:745 JLINK_WriteReg(R14, 0x20000001)  returns 0x00 (0000ms, 0660ms total)
T3118 000:745 JLINK_WriteReg(R15 (PC), 0x20000344)  returns 0x00 (0000ms, 0660ms total)
T3118 000:745 JLINK_WriteReg(XPSR, 0x01000000)  returns 0x00 (0000ms, 0660ms total)
T3118 000:745 JLINK_WriteReg(MSP, 0x20002000)  returns 0x00 (0000ms, 0660ms total)
T3118 000:745 JLINK_WriteReg(PSP, 0x20002000)  returns 0x00 (0000ms, 0660ms total)
T3118 000:745 JLINK_WriteReg(CFBP, 0x00000000)  returns 0x00 (0000ms, 0660ms total)
T3118 000:745 JLINK_SetBPEx(Addr = 0x20000000, Type = 0xFFFFFFF2)  returns 0x00000002 (0000ms, 0660ms total)
T3118 000:745 JLINK_Go() -- CPU_ReadMem(4 bytes @ 0xE0001000) (0001ms, 0661ms total)
T3118 000:746 JLINK_IsHalted() -- CPU_ReadMem(2 bytes @ 0x20000000)  returns TRUE (0002ms, 0663ms total)
T3118 000:748 JLINK_ReadReg(R15 (PC))  returns 0x20000000 (0000ms, 0661ms total)
T3118 000:748 JLINK_ClrBPEx(BPHandle = 0x00000002)  returns 0x00 (0000ms, 0661ms total)
T3118 000:748 JLINK_ReadReg(R0)  returns 0x00000001 (0000ms, 0661ms total)
T3118 000:748 JLINK_WriteReg(R0, 0x00000000)  returns 0x00 (0000ms, 0661ms total)
T3118 000:748 JLINK_WriteReg(R1, 0x00001000)  returns 0x00 (0000ms, 0661ms total)
T3118 000:748 JLINK_WriteReg(R2, 0x000000FF)  returns 0x00 (0000ms, 0661ms total)
T3118 000:748 JLINK_WriteReg(R3, 0x00000000)  returns 0x00 (0000ms, 0661ms total)
T3118 000:748 JLINK_WriteReg(R4, 0x00000000)  returns 0x00 (0000ms, 0661ms total)
T3118 000:748 JLINK_WriteReg(R5, 0x00000000)  returns 0x00 (0000ms, 0661ms total)
T3118 000:748 JLINK_WriteReg(R6, 0x00000000)  returns 0x00 (0000ms, 0661ms total)
T3118 000:748 JLINK_WriteReg(R7, 0x00000000)  returns 0x00 (0000ms, 0661ms total)
T3118 000:748 JLINK_WriteReg(R8, 0x00000000)  returns 0x00 (0000ms, 0661ms total)
T3118 000:748 JLINK_WriteReg(R9, 0x200006E0)  returns 0x00 (0000ms, 0661ms total)
T3118 000:748 JLINK_WriteReg(R10, 0x00000000)  returns 0x00 (0000ms, 0661ms total)
T3118 000:748 JLINK_WriteReg(R11, 0x00000000)  returns 0x00 (0000ms, 0661ms total)
T3118 000:748 JLINK_WriteReg(R12, 0x00000000)  returns 0x00 (0000ms, 0661ms total)
T3118 000:748 JLINK_WriteReg(R13 (SP), 0x20002000)  returns 0x00 (0000ms, 0661ms total)
T3118 000:748 JLINK_WriteReg(R14, 0x20000001)  returns 0x00 (0000ms, 0661ms total)
T3118 000:748 JLINK_WriteReg(R15 (PC), 0x20000188)  returns 0x00 (0000ms, 0661ms total)
T3118 000:748 JLINK_WriteReg(XPSR, 0x01000000)  returns 0x00 (0000ms, 0661ms total)
T3118 000:748 JLINK_WriteReg(MSP, 0x20002000)  returns 0x00 (0000ms, 0661ms total)
T3118 000:748 JLINK_WriteReg(PSP, 0x20002000)  returns 0x00 (0000ms, 0661ms total)
T3118 000:748 JLINK_WriteReg(CFBP, 0x00000000)  returns 0x00 (0000ms, 0661ms total)
T3118 000:748 JLINK_SetBPEx(Addr = 0x20000000, Type = 0xFFFFFFF2)  returns 0x00000003 (0000ms, 0661ms total)
T3118 000:748 JLINK_Go() -- CPU_ReadMem(4 bytes @ 0xE0001000) (0001ms, 0662ms total)
T3118 000:749 JLINK_IsHalted()  returns FALSE (0001ms, 0663ms total)
T3118 000:794 JLINK_IsHalted() -- CPU_ReadMem(2 bytes @ 0x20000000)  returns TRUE (0002ms, 0664ms total)
T3118 000:796 JLINK_ReadReg(R15 (PC))  returns 0x20000000 (0000ms, 0662ms total)
T3118 000:796 JLINK_ClrBPEx(BPHandle = 0x00000003)  returns 0x00 (0000ms, 0662ms total)
T3118 000:796 JLINK_ReadReg(R0)  returns 0x00000000 (0000ms, 0662ms total)
T3118 000:796 JLINK_WriteReg(R0, 0x00001000)  returns 0x00 (0000ms, 0662ms total)
T3118 000:796 JLINK_WriteReg(R1, 0x00001000)  returns 0x00 (0000ms, 0662ms total)
T3118 000:796 JLINK_WriteReg(R2, 0x000000FF)  returns 0x00 (0000ms, 0662ms total)
T3118 000:796 JLINK_WriteReg(R3, 0x00000000)  returns 0x00 (0000ms, 0662ms total)
T3118 000:796 JLINK_WriteReg(R4, 0x00000000)  returns 0x00 (0000ms, 0662ms total)
T3118 000:796 JLINK_WriteReg(R5, 0x00000000)  returns 0x00 (0000ms, 0662ms total)
T3118 000:796 JLINK_WriteReg(R6, 0x00000000)  returns 0x00 (0000ms, 0662ms total)
T3118 000:796 JLINK_WriteReg(R7, 0x00000000)  returns 0x00 (0000ms, 0662ms total)
T3118 000:796 JLINK_WriteReg(R8, 0x00000000)  returns 0x00 (0000ms, 0662ms total)
T3118 000:796 JLINK_WriteReg(R9, 0x200006E0)  returns 0x00 (0000ms, 0662ms total)
T3118 000:796 JLINK_WriteReg(R10, 0x00000000)  returns 0x00 (0000ms, 0662ms total)
T3118 000:796 JLINK_WriteReg(R11, 0x00000000)  returns 0x00 (0000ms, 0662ms total)
T3118 000:796 JLINK_WriteReg(R12, 0x00000000)  returns 0x00 (0000ms, 0662ms total)
T3118 000:796 JLINK_WriteReg(R13 (SP), 0x20002000)  returns 0x00 (0000ms, 0662ms total)
T3118 000:796 JLINK_WriteReg(R14, 0x20000001)  returns 0x00 (0000ms, 0662ms total)
T3118 000:796 JLINK_WriteReg(R15 (PC), 0x20000344)  returns 0x00 (0000ms, 0662ms total)
T3118 000:796 JLINK_WriteReg(XPSR, 0x01000000)  returns 0x00 (0000ms, 0662ms total)
T3118 000:796 JLINK_WriteReg(MSP, 0x20002000)  returns 0x00 (0000ms, 0662ms total)
T3118 000:796 JLINK_WriteReg(PSP, 0x20002000)  returns 0x00 (0000ms, 0662ms total)
T3118 000:796 JLINK_WriteReg(CFBP, 0x00000000)  returns 0x00 (0000ms, 0662ms total)
T3118 000:796 JLINK_SetBPEx(Addr = 0x20000000, Type = 0xFFFFFFF2)  returns 0x00000004 (0000ms, 0662ms total)
T3118 000:796 JLINK_Go() -- CPU_ReadMem(4 bytes @ 0xE0001000) (0002ms, 0664ms total)
T3118 000:798 JLINK_IsHalted() -- CPU_ReadMem(2 bytes @ 0x20000000)  returns TRUE (0002ms, 0666ms total)
T3118 000:800 JLINK_ReadReg(R15 (PC))  returns 0x20000000 (0000ms, 0664ms total)
T3118 000:800 JLINK_ClrBPEx(BPHandle = 0x00000004)  returns 0x00 (0000ms, 0664ms total)
T3118 000:800 JLINK_ReadReg(R0)  returns 0x00000001 (0000ms, 0664ms total)
T3118 000:800 JLINK_WriteReg(R0, 0x00001000)  returns 0x00 (0000ms, 0664ms total)
T3118 000:800 JLINK_WriteReg(R1, 0x00001000)  returns 0x00 (0000ms, 0664ms total)
T3118 000:800 JLINK_WriteReg(R2, 0x000000FF)  returns 0x00 (0000ms, 0664ms total)
T3118 000:800 JLINK_WriteReg(R3, 0x00000000)  returns 0x00 (0000ms, 0664ms total)
T3118 000:800 JLINK_WriteReg(R4, 0x00000000)  returns 0x00 (0000ms, 0664ms total)
T3118 000:800 JLINK_WriteReg(R5, 0x00000000)  returns 0x00 (0000ms, 0664ms total)
T3118 000:800 JLINK_WriteReg(R6, 0x00000000)  returns 0x00 (0000ms, 0664ms total)
T3118 000:800 JLINK_WriteReg(R7, 0x00000000)  returns 0x00 (0000ms, 0664ms total)
T3118 000:800 JLINK_WriteReg(R8, 0x00000000)  returns 0x00 (0000ms, 0664ms total)
T3118 000:800 JLINK_WriteReg(R9, 0x200006E0)  returns 0x00 (0000ms, 0664ms total)
T3118 000:800 JLINK_WriteReg(R10, 0x00000000)  returns 0x00 (0000ms, 0664ms total)
T3118 000:800 JLINK_WriteReg(R11, 0x00000000)  returns 0x00 (0000ms, 0664ms total)
T3118 000:800 JLINK_WriteReg(R12, 0x00000000)  returns 0x00 (0000ms, 0664ms total)
T3118 000:800 JLINK_WriteReg(R13 (SP), 0x20002000)  returns 0x00 (0000ms, 0664ms total)
T3118 000:800 JLINK_WriteReg(R14, 0x20000001)  returns 0x00 (0000ms, 0664ms total)
T3118 000:800 JLINK_WriteReg(R15 (PC), 0x20000188)  returns 0x00 (0000ms, 0664ms total)
T3118 000:800 JLINK_WriteReg(XPSR, 0x01000000)  returns 0x00 (0000ms, 0664ms total)
T3118 000:800 JLINK_WriteReg(MSP, 0x20002000)  returns 0x00 (0000ms, 0664ms total)
T3118 000:800 JLINK_WriteReg(PSP, 0x20002000)  returns 0x00 (0000ms, 0664ms total)
T3118 000:800 JLINK_WriteReg(CFBP, 0x00000000)  returns 0x00 (0000ms, 0664ms total)
T3118 000:800 JLINK_SetBPEx(Addr = 0x20000000, Type = 0xFFFFFFF2)  returns 0x00000005 (0000ms, 0664ms total)
T3118 000:800 JLINK_Go() -- CPU_ReadMem(4 bytes @ 0xE0001000) (0001ms, 0665ms total)
T3118 000:801 JLINK_IsHalted()  returns FALSE (0000ms, 0665ms total)
T3118 000:803 JLINK_IsHalted()  returns FALSE (0000ms, 0665ms total)
T3118 000:805 JLINK_IsHalted() -- CPU_ReadMem(2 bytes @ 0x20000000)  returns TRUE (0002ms, 0667ms total)
T3118 000:807 JLINK_ReadReg(R15 (PC))  returns 0x20000000 (0000ms, 0665ms total)
T3118 000:807 JLINK_ClrBPEx(BPHandle = 0x00000005)  returns 0x00 (0000ms, 0665ms total)
T3118 000:807 JLINK_ReadReg(R0)  returns 0x00000000 (0000ms, 0665ms total)
T3118 000:807 JLINK_WriteReg(R0, 0x00000001)  returns 0x00 (0000ms, 0665ms total)
T3118 000:807 JLINK_WriteReg(R1, 0x00001000)  returns 0x00 (0000ms, 0665ms total)
T3118 000:807 JLINK_WriteReg(R2, 0x000000FF)  returns 0x00 (0000ms, 0665ms total)
T3118 000:807 JLINK_WriteReg(R3, 0x00000000)  returns 0x00 (0000ms, 0665ms total)
T3118 000:807 JLINK_WriteReg(R4, 0x00000000)  returns 0x00 (0000ms, 0665ms total)
T3118 000:807 JLINK_WriteReg(R5, 0x00000000)  returns 0x00 (0000ms, 0665ms total)
T3118 000:807 JLINK_WriteReg(R6, 0x00000000)  returns 0x00 (0000ms, 0665ms total)
T3118 000:807 JLINK_WriteReg(R7, 0x00000000)  returns 0x00 (0000ms, 0665ms total)
T3118 000:807 JLINK_WriteReg(R8, 0x00000000)  returns 0x00 (0000ms, 0665ms total)
T3118 000:807 JLINK_WriteReg(R9, 0x200006E0)  returns 0x00 (0000ms, 0665ms total)
T3118 000:807 JLINK_WriteReg(R10, 0x00000000)  returns 0x00 (0000ms, 0665ms total)
T3118 000:807 JLINK_WriteReg(R11, 0x00000000)  returns 0x00 (0000ms, 0665ms total)
T3118 000:807 JLINK_WriteReg(R12, 0x00000000)  returns 0x00 (0000ms, 0665ms total)
T3118 000:807 JLINK_WriteReg(R13 (SP), 0x20002000)  returns 0x00 (0000ms, 0665ms total)
T3118 000:807 JLINK_WriteReg(R14, 0x20000001)  returns 0x00 (0000ms, 0665ms total)
T3118 000:807 JLINK_WriteReg(R15 (PC), 0x20000090)  returns 0x00 (0000ms, 0665ms total)
T3118 000:807 JLINK_WriteReg(XPSR, 0x01000000)  returns 0x00 (0000ms, 0665ms total)
T3118 000:807 JLINK_WriteReg(MSP, 0x20002000)  returns 0x00 (0000ms, 0665ms total)
T3118 000:807 JLINK_WriteReg(PSP, 0x20002000)  returns 0x00 (0000ms, 0665ms total)
T3118 000:807 JLINK_WriteReg(CFBP, 0x00000000)  returns 0x00 (0000ms, 0665ms total)
T3118 000:807 JLINK_SetBPEx(Addr = 0x20000000, Type = 0xFFFFFFF2)  returns 0x00000006 (0001ms, 0666ms total)
T3118 000:808 JLINK_Go() -- CPU_ReadMem(4 bytes @ 0xE0001000) (0001ms, 0667ms total)
T3118 000:809 JLINK_IsHalted() -- CPU_ReadMem(2 bytes @ 0x20000000)  returns TRUE (0002ms, 0669ms total)
T3118 000:811 JLINK_ReadReg(R15 (PC))  returns 0x20000000 (0000ms, 0667ms total)
T3118 000:811 JLINK_ClrBPEx(BPHandle = 0x00000006)  returns 0x00 (0000ms, 0667ms total)
T3118 000:811 JLINK_ReadReg(R0)  returns 0x00000000 (0000ms, 0667ms total)
T3118 000:866 JLINK_WriteMem(0x20000000, 0x06E4 Bytes, ...) - Data: 00 BE 0A E0 0D 78 2D 06 68 40 08 24 40 00 00 D3 ... -- CPU_WriteMem(1764 bytes @ 0x20000000)  returns 0x6E4 (0006ms, 0673ms total)
T3118 000:872 JLINK_WriteReg(R0, 0x00000000)  returns 0x00 (0000ms, 0673ms total)
T3118 000:872 JLINK_WriteReg(R1, 0x03D09000)  returns 0x00 (0000ms, 0673ms total)
T3118 000:872 JLINK_WriteReg(R2, 0x00000002)  returns 0x00 (0000ms, 0673ms total)
T3118 000:872 JLINK_WriteReg(R3, 0x00000000)  returns 0x00 (0000ms, 0673ms total)
T3118 000:872 JLINK_WriteReg(R4, 0x00000000)  returns 0x00 (0000ms, 0673ms total)
T3118 000:872 JLINK_WriteReg(R5, 0x00000000)  returns 0x00 (0000ms, 0673ms total)
T3118 000:872 JLINK_WriteReg(R6, 0x00000000)  returns 0x00 (0000ms, 0673ms total)
T3118 000:872 JLINK_WriteReg(R7, 0x00000000)  returns 0x00 (0000ms, 0673ms total)
T3118 000:872 JLINK_WriteReg(R8, 0x00000000)  returns 0x00 (0000ms, 0673ms total)
T3118 000:872 JLINK_WriteReg(R9, 0x200006E0)  returns 0x00 (0000ms, 0673ms total)
T3118 000:872 JLINK_WriteReg(R10, 0x00000000)  returns 0x00 (0000ms, 0673ms total)
T3118 000:872 JLINK_WriteReg(R11, 0x00000000)  returns 0x00 (0000ms, 0673ms total)
T3118 000:872 JLINK_WriteReg(R12, 0x00000000)  returns 0x00 (0000ms, 0673ms total)
T3118 000:872 JLINK_WriteReg(R13 (SP), 0x20002000)  returns 0x00 (0000ms, 0673ms total)
T3118 000:872 JLINK_WriteReg(R14, 0x20000001)  returns 0x00 (0000ms, 0673ms total)
T3118 000:872 JLINK_WriteReg(R15 (PC), 0x20000020)  returns 0x00 (0000ms, 0673ms total)
T3118 000:872 JLINK_WriteReg(XPSR, 0x01000000)  returns 0x00 (0000ms, 0673ms total)
T3118 000:872 JLINK_WriteReg(MSP, 0x20002000)  returns 0x00 (0000ms, 0673ms total)
T3118 000:872 JLINK_WriteReg(PSP, 0x20002000)  returns 0x00 (0000ms, 0673ms total)
T3118 000:872 JLINK_WriteReg(CFBP, 0x00000000)  returns 0x00 (0000ms, 0673ms total)
T3118 000:872 JLINK_SetBPEx(Addr = 0x20000000, Type = 0xFFFFFFF2) -- CPU_ReadMem(2 bytes @ 0x20000000)  returns 0x00000007 (0001ms, 0674ms total)
T3118 000:873 JLINK_Go() -- CPU_WriteMem(2 bytes @ 0x20000000) -- CPU_ReadMem(4 bytes @ 0xE0001000) (0001ms, 0675ms total)
T3118 000:874 JLINK_IsHalted() -- CPU_ReadMem(2 bytes @ 0x20000000)  returns TRUE (0002ms, 0677ms total)
T3118 000:877 JLINK_ReadReg(R15 (PC))  returns 0x20000000 (0000ms, 0675ms total)
T3118 000:877 JLINK_ClrBPEx(BPHandle = 0x00000007)  returns 0x00 (0000ms, 0675ms total)
T3118 000:877 JLINK_ReadReg(R0)  returns 0x00000000 (0000ms, 0675ms total)
T3118 000:877 JLINK_WriteMem(0x200006F4, 0x090C Bytes, ...) - Data: C8 23 00 20 15 02 00 00 1D 02 00 00 1F 02 00 00 ... -- CPU_WriteMem(2316 bytes @ 0x200006F4)  returns 0x90C (0008ms, 0683ms total)
T3118 000:885 JLINK_WriteMem(0x20001000, 0x06F4 Bytes, ...) - Data: C4 F8 10 11 A9 68 41 F0 04 01 C4 F8 00 12 60 60 ... -- CPU_WriteMem(1780 bytes @ 0x20001000)  returns 0x6F4 (0007ms, 0690ms total)
T3118 000:892 JLINK_WriteReg(R0, 0x00000000)  returns 0x00 (0000ms, 0690ms total)
T3118 000:892 JLINK_WriteReg(R1, 0x00001000)  returns 0x00 (0000ms, 0690ms total)
T3118 000:892 JLINK_WriteReg(R2, 0x200006F4)  returns 0x00 (0000ms, 0690ms total)
T3118 000:892 JLINK_WriteReg(R3, 0x00000000)  returns 0x00 (0000ms, 0690ms total)
T3118 000:892 JLINK_WriteReg(R4, 0x00000000)  returns 0x00 (0000ms, 0690ms total)
T3118 000:892 JLINK_WriteReg(R5, 0x00000000)  returns 0x00 (0000ms, 0690ms total)
T3118 000:892 JLINK_WriteReg(R6, 0x00000000)  returns 0x00 (0000ms, 0690ms total)
T3118 000:892 JLINK_WriteReg(R7, 0x00000000)  returns 0x00 (0000ms, 0690ms total)
T3118 000:892 JLINK_WriteReg(R8, 0x00000000)  returns 0x00 (0000ms, 0690ms total)
T3118 000:892 JLINK_WriteReg(R9, 0x200006E0)  returns 0x00 (0000ms, 0690ms total)
T3118 000:892 JLINK_WriteReg(R10, 0x00000000)  returns 0x00 (0000ms, 0690ms total)
T3118 000:892 JLINK_WriteReg(R11, 0x00000000)  returns 0x00 (0000ms, 0690ms total)
T3118 000:892 JLINK_WriteReg(R12, 0x00000000)  returns 0x00 (0000ms, 0690ms total)
T3118 000:892 JLINK_WriteReg(R13 (SP), 0x20002000)  returns 0x00 (0000ms, 0690ms total)
T3118 000:892 JLINK_WriteReg(R14, 0x20000001)  returns 0x00 (0000ms, 0690ms total)
T3118 000:892 JLINK_WriteReg(R15 (PC), 0x2000020C)  returns 0x00 (0000ms, 0690ms total)
T3118 000:892 JLINK_WriteReg(XPSR, 0x01000000)  returns 0x00 (0000ms, 0690ms total)
T3118 000:892 JLINK_WriteReg(MSP, 0x20002000)  returns 0x00 (0000ms, 0690ms total)
T3118 000:892 JLINK_WriteReg(PSP, 0x20002000)  returns 0x00 (0000ms, 0690ms total)
T3118 000:892 JLINK_WriteReg(CFBP, 0x00000000)  returns 0x00 (0000ms, 0690ms total)
T3118 000:892 JLINK_SetBPEx(Addr = 0x20000000, Type = 0xFFFFFFF2)  returns 0x00000008 (0000ms, 0690ms total)
T3118 000:892 JLINK_Go() -- CPU_ReadMem(4 bytes @ 0xE0001000) (0001ms, 0691ms total)
T3118 000:893 JLINK_IsHalted()  returns FALSE (0000ms, 0691ms total)
T3118 000:899 JLINK_IsHalted()  returns FALSE (0000ms, 0691ms total)
T3118 000:901 JLINK_IsHalted()  returns FALSE (0000ms, 0691ms total)
T3118 000:903 JLINK_IsHalted()  returns FALSE (0000ms, 0691ms total)
T3118 000:905 JLINK_IsHalted()  returns FALSE (0000ms, 0691ms total)
T3118 000:907 JLINK_IsHalted()  returns FALSE (0000ms, 0691ms total)
T3118 000:909 JLINK_IsHalted()  returns FALSE (0000ms, 0691ms total)
T3118 000:911 JLINK_IsHalted()  returns FALSE (0000ms, 0691ms total)
T3118 000:913 JLINK_IsHalted()  returns FALSE (0000ms, 0691ms total)
T3118 000:915 JLINK_IsHalted()  returns FALSE (0000ms, 0691ms total)
T3118 000:917 JLINK_IsHalted()  returns FALSE (0000ms, 0691ms total)
T3118 000:919 JLINK_IsHalted()  returns FALSE (0000ms, 0691ms total)
T3118 000:921 JLINK_IsHalted()  returns FALSE (0000ms, 0691ms total)
T3118 000:923 JLINK_IsHalted()  returns FALSE (0000ms, 0691ms total)
T3118 000:925 JLINK_IsHalted()  returns FALSE (0000ms, 0691ms total)
T3118 000:927 JLINK_IsHalted()  returns FALSE (0000ms, 0691ms total)
T3118 000:929 JLINK_IsHalted()  returns FALSE (0000ms, 0691ms total)
T3118 000:931 JLINK_IsHalted()  returns FALSE (0000ms, 0691ms total)
T3118 000:933 JLINK_IsHalted()  returns FALSE (0000ms, 0691ms total)
T3118 000:935 JLINK_IsHalted()  returns FALSE (0000ms, 0691ms total)
T3118 000:937 JLINK_IsHalted()  returns FALSE (0000ms, 0691ms total)
T3118 000:939 JLINK_IsHalted()  returns FALSE (0000ms, 0691ms total)
T3118 000:941 JLINK_IsHalted()  returns FALSE (0000ms, 0691ms total)
T3118 000:943 JLINK_IsHalted()  returns FALSE (0000ms, 0691ms total)
T3118 000:945 JLINK_IsHalted()  returns FALSE (0000ms, 0691ms total)
T3118 000:949 JLINK_IsHalted()  returns FALSE (0000ms, 0691ms total)
T3118 000:951 JLINK_IsHalted()  returns FALSE (0000ms, 0691ms total)
T3118 000:953 JLINK_IsHalted()  returns FALSE (0000ms, 0691ms total)
T3118 000:955 JLINK_IsHalted()  returns FALSE (0000ms, 0691ms total)
T3118 000:957 JLINK_IsHalted()  returns FALSE (0000ms, 0691ms total)
T3118 000:959 JLINK_IsHalted()  returns FALSE (0000ms, 0691ms total)
T3118 000:961 JLINK_IsHalted()  returns FALSE (0000ms, 0691ms total)
T3118 000:963 JLINK_IsHalted() -- CPU_ReadMem(2 bytes @ 0x20000000)  returns TRUE (0002ms, 0693ms total)
T3118 000:965 JLINK_ReadReg(R15 (PC))  returns 0x20000000 (0000ms, 0691ms total)
T3118 000:965 JLINK_ClrBPEx(BPHandle = 0x00000008)  returns 0x00 (0000ms, 0691ms total)
T3118 000:965 JLINK_ReadReg(R0)  returns 0x00000000 (0000ms, 0691ms total)
T3118 000:966 JLINK_WriteMem(0x200006F4, 0x090C Bytes, ...) - Data: 00 10 00 40 0D 11 00 00 30 15 00 40 86 03 00 20 ... -- CPU_WriteMem(2316 bytes @ 0x200006F4)  returns 0x90C (0008ms, 0699ms total)
T3118 000:974 JLINK_WriteMem(0x20001000, 0x06F4 Bytes, ...) - Data: FF FF FF FF FF FF FF FF FF FF FF FF FF FF FF FF ... -- CPU_WriteMem(1780 bytes @ 0x20001000)  returns 0x6F4 (0006ms, 0705ms total)
T3118 000:980 JLINK_WriteReg(R0, 0x00001000)  returns 0x00 (0000ms, 0705ms total)
T3118 000:980 JLINK_WriteReg(R1, 0x00000894)  returns 0x00 (0000ms, 0705ms total)
T3118 000:980 JLINK_WriteReg(R2, 0x200006F4)  returns 0x00 (0000ms, 0705ms total)
T3118 000:980 JLINK_WriteReg(R3, 0x00000000)  returns 0x00 (0000ms, 0705ms total)
T3118 000:980 JLINK_WriteReg(R4, 0x00000000)  returns 0x00 (0000ms, 0705ms total)
T3118 000:980 JLINK_WriteReg(R5, 0x00000000)  returns 0x00 (0000ms, 0705ms total)
T3118 000:980 JLINK_WriteReg(R6, 0x00000000)  returns 0x00 (0000ms, 0705ms total)
T3118 000:980 JLINK_WriteReg(R7, 0x00000000)  returns 0x00 (0000ms, 0705ms total)
T3118 000:980 JLINK_WriteReg(R8, 0x00000000)  returns 0x00 (0000ms, 0705ms total)
T3118 000:980 JLINK_WriteReg(R9, 0x200006E0)  returns 0x00 (0000ms, 0705ms total)
T3118 000:980 JLINK_WriteReg(R10, 0x00000000)  returns 0x00 (0000ms, 0705ms total)
T3118 000:980 JLINK_WriteReg(R11, 0x00000000)  returns 0x00 (0000ms, 0705ms total)
T3118 000:980 JLINK_WriteReg(R12, 0x00000000)  returns 0x00 (0000ms, 0705ms total)
T3118 000:981 JLINK_WriteReg(R13 (SP), 0x20002000)  returns 0x00 (0000ms, 0705ms total)
T3118 000:981 JLINK_WriteReg(R14, 0x20000001)  returns 0x00 (0000ms, 0705ms total)
T3118 000:981 JLINK_WriteReg(R15 (PC), 0x2000020C)  returns 0x00 (0000ms, 0705ms total)
T3118 000:981 JLINK_WriteReg(XPSR, 0x01000000)  returns 0x00 (0000ms, 0705ms total)
T3118 000:981 JLINK_WriteReg(MSP, 0x20002000)  returns 0x00 (0000ms, 0705ms total)
T3118 000:981 JLINK_WriteReg(PSP, 0x20002000)  returns 0x00 (0000ms, 0705ms total)
T3118 000:981 JLINK_WriteReg(CFBP, 0x00000000)  returns 0x00 (0000ms, 0705ms total)
T3118 000:981 JLINK_SetBPEx(Addr = 0x20000000, Type = 0xFFFFFFF2)  returns 0x00000009 (0000ms, 0705ms total)
T3118 000:981 JLINK_Go() -- CPU_ReadMem(4 bytes @ 0xE0001000) (0001ms, 0706ms total)
T3118 000:982 JLINK_IsHalted()  returns FALSE (0000ms, 0706ms total)
T3118 000:984 JLINK_IsHalted()  returns FALSE (0000ms, 0706ms total)
T3118 000:986 JLINK_IsHalted()  returns FALSE (0000ms, 0706ms total)
T3118 000:988 JLINK_IsHalted()  returns FALSE (0000ms, 0706ms total)
T3118 000:990 JLINK_IsHalted()  returns FALSE (0000ms, 0706ms total)
T3118 000:992 JLINK_IsHalted()  returns FALSE (0000ms, 0706ms total)
T3118 000:994 JLINK_IsHalted()  returns FALSE (0000ms, 0706ms total)
T3118 000:997 JLINK_IsHalted()  returns FALSE (0000ms, 0706ms total)
T3118 000:999 JLINK_IsHalted()  returns FALSE (0000ms, 0706ms total)
T3118 001:001 JLINK_IsHalted()  returns FALSE (0000ms, 0706ms total)
T3118 001:003 JLINK_IsHalted()  returns FALSE (0000ms, 0706ms total)
T3118 001:005 JLINK_IsHalted()  returns FALSE (0000ms, 0706ms total)
T3118 001:007 JLINK_IsHalted()  returns FALSE (0000ms, 0706ms total)
T3118 001:009 JLINK_IsHalted()  returns FALSE (0000ms, 0706ms total)
T3118 001:011 JLINK_IsHalted()  returns FALSE (0000ms, 0706ms total)
T3118 001:013 JLINK_IsHalted()  returns FALSE (0000ms, 0706ms total)
T3118 001:015 JLINK_IsHalted()  returns FALSE (0000ms, 0706ms total)
T3118 001:017 JLINK_IsHalted()  returns FALSE (0000ms, 0706ms total)
T3118 001:019 JLINK_IsHalted()  returns FALSE (0000ms, 0706ms total)
T3118 001:021 JLINK_IsHalted() -- CPU_ReadMem(2 bytes @ 0x20000000)  returns TRUE (0002ms, 0708ms total)
T3118 001:023 JLINK_ReadReg(R15 (PC))  returns 0x20000000 (0000ms, 0706ms total)
T3118 001:023 JLINK_ClrBPEx(BPHandle = 0x00000009)  returns 0x00 (0000ms, 0706ms total)
T3118 001:023 JLINK_ReadReg(R0)  returns 0x00000000 (0000ms, 0706ms total)
T3118 001:023 JLINK_WriteReg(R0, 0x00000002)  returns 0x00 (0000ms, 0706ms total)
T3118 001:023 JLINK_WriteReg(R1, 0x00000894)  returns 0x00 (0000ms, 0706ms total)
T3118 001:023 JLINK_WriteReg(R2, 0x200006F4)  returns 0x00 (0000ms, 0706ms total)
T3118 001:023 JLINK_WriteReg(R3, 0x00000000)  returns 0x00 (0000ms, 0706ms total)
T3118 001:023 JLINK_WriteReg(R4, 0x00000000)  returns 0x00 (0000ms, 0706ms total)
T3118 001:023 JLINK_WriteReg(R5, 0x00000000)  returns 0x00 (0000ms, 0706ms total)
T3118 001:023 JLINK_WriteReg(R6, 0x00000000)  returns 0x00 (0000ms, 0706ms total)
T3118 001:023 JLINK_WriteReg(R7, 0x00000000)  returns 0x00 (0000ms, 0706ms total)
T3118 001:023 JLINK_WriteReg(R8, 0x00000000)  returns 0x00 (0000ms, 0706ms total)
T3118 001:023 JLINK_WriteReg(R9, 0x200006E0)  returns 0x00 (0000ms, 0706ms total)
T3118 001:023 JLINK_WriteReg(R10, 0x00000000)  returns 0x00 (0000ms, 0706ms total)
T3118 001:023 JLINK_WriteReg(R11, 0x00000000)  returns 0x00 (0000ms, 0706ms total)
T3118 001:023 JLINK_WriteReg(R12, 0x00000000)  returns 0x00 (0000ms, 0706ms total)
T3118 001:023 JLINK_WriteReg(R13 (SP), 0x20002000)  returns 0x00 (0000ms, 0706ms total)
T3118 001:023 JLINK_WriteReg(R14, 0x20000001)  returns 0x00 (0000ms, 0706ms total)
T3118 001:023 JLINK_WriteReg(R15 (PC), 0x20000090)  returns 0x00 (0000ms, 0706ms total)
T3118 001:023 JLINK_WriteReg(XPSR, 0x01000000)  returns 0x00 (0000ms, 0706ms total)
T3118 001:023 JLINK_WriteReg(MSP, 0x20002000)  returns 0x00 (0000ms, 0706ms total)
T3118 001:023 JLINK_WriteReg(PSP, 0x20002000)  returns 0x00 (0000ms, 0706ms total)
T3118 001:023 JLINK_WriteReg(CFBP, 0x00000000)  returns 0x00 (0000ms, 0706ms total)
T3118 001:023 JLINK_SetBPEx(Addr = 0x20000000, Type = 0xFFFFFFF2)  returns 0x0000000A (0000ms, 0706ms total)
T3118 001:023 JLINK_Go() -- CPU_ReadMem(4 bytes @ 0xE0001000) (0001ms, 0707ms total)
T3118 001:024 JLINK_IsHalted() -- CPU_ReadMem(2 bytes @ 0x20000000)  returns TRUE (0003ms, 0710ms total)
T3118 001:027 JLINK_ReadReg(R15 (PC))  returns 0x20000000 (0000ms, 0707ms total)
T3118 001:027 JLINK_ClrBPEx(BPHandle = 0x0000000A)  returns 0x00 (0000ms, 0707ms total)
T3118 001:027 JLINK_ReadReg(R0)  returns 0x00000000 (0000ms, 0707ms total)
T3118 001:085 JLINK_WriteMem(0x20000000, 0x06E4 Bytes, ...) - Data: 00 BE 0A E0 0D 78 2D 06 68 40 08 24 40 00 00 D3 ... -- CPU_WriteMem(1764 bytes @ 0x20000000)  returns 0x6E4 (0006ms, 0713ms total)
T3118 001:091 JLINK_WriteReg(R0, 0x00000000)  returns 0x00 (0000ms, 0713ms total)
T3118 001:091 JLINK_WriteReg(R1, 0x03D09000)  returns 0x00 (0000ms, 0713ms total)
T3118 001:091 JLINK_WriteReg(R2, 0x00000003)  returns 0x00 (0000ms, 0713ms total)
T3118 001:091 JLINK_WriteReg(R3, 0x00000000)  returns 0x00 (0000ms, 0713ms total)
T3118 001:091 JLINK_WriteReg(R4, 0x00000000)  returns 0x00 (0000ms, 0713ms total)
T3118 001:091 JLINK_WriteReg(R5, 0x00000000)  returns 0x00 (0000ms, 0713ms total)
T3118 001:091 JLINK_WriteReg(R6, 0x00000000)  returns 0x00 (0000ms, 0713ms total)
T3118 001:091 JLINK_WriteReg(R7, 0x00000000)  returns 0x00 (0000ms, 0713ms total)
T3118 001:091 JLINK_WriteReg(R8, 0x00000000)  returns 0x00 (0000ms, 0713ms total)
T3118 001:091 JLINK_WriteReg(R9, 0x200006E0)  returns 0x00 (0000ms, 0713ms total)
T3118 001:091 JLINK_WriteReg(R10, 0x00000000)  returns 0x00 (0000ms, 0713ms total)
T3118 001:091 JLINK_WriteReg(R11, 0x00000000)  returns 0x00 (0000ms, 0713ms total)
T3118 001:091 JLINK_WriteReg(R12, 0x00000000)  returns 0x00 (0000ms, 0713ms total)
T3118 001:091 JLINK_WriteReg(R13 (SP), 0x20002000)  returns 0x00 (0000ms, 0713ms total)
T3118 001:091 JLINK_WriteReg(R14, 0x20000001)  returns 0x00 (0000ms, 0713ms total)
T3118 001:091 JLINK_WriteReg(R15 (PC), 0x20000020)  returns 0x00 (0000ms, 0713ms total)
T3118 001:091 JLINK_WriteReg(XPSR, 0x01000000)  returns 0x00 (0000ms, 0713ms total)
T3118 001:091 JLINK_WriteReg(MSP, 0x20002000)  returns 0x00 (0000ms, 0713ms total)
T3118 001:091 JLINK_WriteReg(PSP, 0x20002000)  returns 0x00 (0000ms, 0713ms total)
T3118 001:091 JLINK_WriteReg(CFBP, 0x00000000)  returns 0x00 (0000ms, 0713ms total)
T3118 001:091 JLINK_SetBPEx(Addr = 0x20000000, Type = 0xFFFFFFF2) -- CPU_ReadMem(2 bytes @ 0x20000000)  returns 0x0000000B (0001ms, 0714ms total)
T3118 001:092 JLINK_Go() -- CPU_WriteMem(2 bytes @ 0x20000000) -- CPU_ReadMem(4 bytes @ 0xE0001000) (0001ms, 0715ms total)
T3118 001:093 JLINK_IsHalted() -- CPU_ReadMem(2 bytes @ 0x20000000)  returns TRUE (0002ms, 0717ms total)
T3118 001:095 JLINK_ReadReg(R15 (PC))  returns 0x20000000 (0000ms, 0715ms total)
T3118 001:095 JLINK_ClrBPEx(BPHandle = 0x0000000B)  returns 0x00 (0000ms, 0715ms total)
T3118 001:095 JLINK_ReadReg(R0)  returns 0x00000000 (0000ms, 0715ms total)
T3118 001:095 JLINK_WriteMem(0x200006F4, 0x090C Bytes, ...) - Data: C8 23 00 20 15 02 00 00 1D 02 00 00 1F 02 00 00 ... -- CPU_WriteMem(2316 bytes @ 0x200006F4)  returns 0x90C (0009ms, 0724ms total)
T3118 001:104 JLINK_WriteMem(0x20001000, 0x06F4 Bytes, ...) - Data: C4 F8 10 11 A9 68 41 F0 04 01 C4 F8 00 12 60 60 ... -- CPU_WriteMem(1780 bytes @ 0x20001000)  returns 0x6F4 (0006ms, 0730ms total)
T3118 001:110 JLINK_WriteReg(R0, 0x00000000)  returns 0x00 (0000ms, 0730ms total)
T3118 001:110 JLINK_WriteReg(R1, 0x00001000)  returns 0x00 (0000ms, 0730ms total)
T3118 001:110 JLINK_WriteReg(R2, 0x200006F4)  returns 0x00 (0000ms, 0730ms total)
T3118 001:110 JLINK_WriteReg(R3, 0x00000000)  returns 0x00 (0000ms, 0730ms total)
T3118 001:110 JLINK_WriteReg(R4, 0x00000000)  returns 0x00 (0000ms, 0730ms total)
T3118 001:110 JLINK_WriteReg(R5, 0x00000000)  returns 0x00 (0000ms, 0730ms total)
T3118 001:110 JLINK_WriteReg(R6, 0x00000000)  returns 0x00 (0000ms, 0730ms total)
T3118 001:110 JLINK_WriteReg(R7, 0x00000000)  returns 0x00 (0000ms, 0730ms total)
T3118 001:110 JLINK_WriteReg(R8, 0x00000000)  returns 0x00 (0000ms, 0730ms total)
T3118 001:110 JLINK_WriteReg(R9, 0x200006E0)  returns 0x00 (0000ms, 0730ms total)
T3118 001:110 JLINK_WriteReg(R10, 0x00000000)  returns 0x00 (0000ms, 0730ms total)
T3118 001:110 JLINK_WriteReg(R11, 0x00000000)  returns 0x00 (0000ms, 0730ms total)
T3118 001:110 JLINK_WriteReg(R12, 0x00000000)  returns 0x00 (0000ms, 0730ms total)
T3118 001:110 JLINK_WriteReg(R13 (SP), 0x20002000)  returns 0x00 (0000ms, 0730ms total)
T3118 001:110 JLINK_WriteReg(R14, 0x20000001)  returns 0x00 (0000ms, 0730ms total)
T3118 001:110 JLINK_WriteReg(R15 (PC), 0x20000454)  returns 0x00 (0000ms, 0730ms total)
T3118 001:110 JLINK_WriteReg(XPSR, 0x01000000)  returns 0x00 (0000ms, 0730ms total)
T3118 001:110 JLINK_WriteReg(MSP, 0x20002000)  returns 0x00 (0000ms, 0730ms total)
T3118 001:110 JLINK_WriteReg(PSP, 0x20002000)  returns 0x00 (0000ms, 0730ms total)
T3118 001:110 JLINK_WriteReg(CFBP, 0x00000000)  returns 0x00 (0000ms, 0730ms total)
T3118 001:110 JLINK_SetBPEx(Addr = 0x20000000, Type = 0xFFFFFFF2)  returns 0x0000000C (0000ms, 0730ms total)
T3118 001:110 JLINK_Go() -- CPU_ReadMem(4 bytes @ 0xE0001000) (0002ms, 0732ms total)
T3118 001:112 JLINK_IsHalted() -- CPU_ReadMem(2 bytes @ 0x20000000)  returns TRUE (0002ms, 0734ms total)
T3118 001:114 JLINK_ReadReg(R15 (PC))  returns 0x20000000 (0000ms, 0732ms total)
T3118 001:114 JLINK_ClrBPEx(BPHandle = 0x0000000C)  returns 0x00 (0000ms, 0732ms total)
T3118 001:114 JLINK_ReadReg(R0)  returns 0x00001000 (0000ms, 0732ms total)
T3118 001:115 JLINK_WriteMem(0x200006F4, 0x090C Bytes, ...) - Data: 00 10 00 40 0D 11 00 00 30 15 00 40 86 03 00 20 ... -- CPU_WriteMem(2316 bytes @ 0x200006F4)  returns 0x90C (0008ms, 0740ms total)
T3118 001:123 JLINK_WriteMem(0x20001000, 0x06F4 Bytes, ...) - Data: 00 00 00 00 00 00 00 00 00 00 00 00 00 00 00 00 ... -- CPU_WriteMem(1780 bytes @ 0x20001000)  returns 0x6F4 (0007ms, 0747ms total)
T3118 001:130 JLINK_WriteReg(R0, 0x00001000)  returns 0x00 (0000ms, 0747ms total)
T3118 001:130 JLINK_WriteReg(R1, 0x00000894)  returns 0x00 (0000ms, 0747ms total)
T3118 001:130 JLINK_WriteReg(R2, 0x200006F4)  returns 0x00 (0000ms, 0747ms total)
T3118 001:130 JLINK_WriteReg(R3, 0x00000000)  returns 0x00 (0000ms, 0747ms total)
T3118 001:130 JLINK_WriteReg(R4, 0x00000000)  returns 0x00 (0000ms, 0747ms total)
T3118 001:130 JLINK_WriteReg(R5, 0x00000000)  returns 0x00 (0000ms, 0747ms total)
T3118 001:130 JLINK_WriteReg(R6, 0x00000000)  returns 0x00 (0000ms, 0747ms total)
T3118 001:130 JLINK_WriteReg(R7, 0x00000000)  returns 0x00 (0000ms, 0747ms total)
T3118 001:130 JLINK_WriteReg(R8, 0x00000000)  returns 0x00 (0000ms, 0747ms total)
T3118 001:130 JLINK_WriteReg(R9, 0x200006E0)  returns 0x00 (0000ms, 0747ms total)
T3118 001:130 JLINK_WriteReg(R10, 0x00000000)  returns 0x00 (0000ms, 0747ms total)
T3118 001:130 JLINK_WriteReg(R11, 0x00000000)  returns 0x00 (0000ms, 0747ms total)
T3118 001:130 JLINK_WriteReg(R12, 0x00000000)  returns 0x00 (0000ms, 0747ms total)
T3118 001:130 JLINK_WriteReg(R13 (SP), 0x20002000)  returns 0x00 (0000ms, 0747ms total)
T3118 001:130 JLINK_WriteReg(R14, 0x20000001)  returns 0x00 (0000ms, 0747ms total)
T3118 001:130 JLINK_WriteReg(R15 (PC), 0x20000454)  returns 0x00 (0000ms, 0747ms total)
T3118 001:130 JLINK_WriteReg(XPSR, 0x01000000)  returns 0x00 (0000ms, 0747ms total)
T3118 001:130 JLINK_WriteReg(MSP, 0x20002000)  returns 0x00 (0000ms, 0747ms total)
T3118 001:130 JLINK_WriteReg(PSP, 0x20002000)  returns 0x00 (0000ms, 0747ms total)
T3118 001:130 JLINK_WriteReg(CFBP, 0x00000000)  returns 0x00 (0000ms, 0747ms total)
T3118 001:130 JLINK_SetBPEx(Addr = 0x20000000, Type = 0xFFFFFFF2)  returns 0x0000000D (0000ms, 0747ms total)
T3118 001:130 JLINK_Go() -- CPU_ReadMem(4 bytes @ 0xE0001000) (0002ms, 0749ms total)
T3118 001:132 JLINK_IsHalted() -- CPU_ReadMem(2 bytes @ 0x20000000)  returns TRUE (0002ms, 0751ms total)
T3118 001:134 JLINK_ReadReg(R15 (PC))  returns 0x20000000 (0000ms, 0749ms total)
T3118 001:134 JLINK_ClrBPEx(BPHandle = 0x0000000D)  returns 0x00 (0000ms, 0749ms total)
T3118 001:134 JLINK_ReadReg(R0)  returns 0x00001894 (0000ms, 0749ms total)
T3118 001:135 JLINK_WriteReg(R0, 0x00000003)  returns 0x00 (0000ms, 0749ms total)
T3118 001:135 JLINK_WriteReg(R1, 0x00000894)  returns 0x00 (0000ms, 0749ms total)
T3118 001:135 JLINK_WriteReg(R2, 0x200006F4)  returns 0x00 (0000ms, 0749ms total)
T3118 001:135 JLINK_WriteReg(R3, 0x00000000)  returns 0x00 (0000ms, 0749ms total)
T3118 001:135 JLINK_WriteReg(R4, 0x00000000)  returns 0x00 (0000ms, 0749ms total)
T3118 001:135 JLINK_WriteReg(R5, 0x00000000)  returns 0x00 (0000ms, 0749ms total)
T3118 001:135 JLINK_WriteReg(R6, 0x00000000)  returns 0x00 (0000ms, 0749ms total)
T3118 001:135 JLINK_WriteReg(R7, 0x00000000)  returns 0x00 (0000ms, 0749ms total)
T3118 001:135 JLINK_WriteReg(R8, 0x00000000)  returns 0x00 (0000ms, 0749ms total)
T3118 001:135 JLINK_WriteReg(R9, 0x200006E0)  returns 0x00 (0000ms, 0749ms total)
T3118 001:135 JLINK_WriteReg(R10, 0x00000000)  returns 0x00 (0000ms, 0749ms total)
T3118 001:135 JLINK_WriteReg(R11, 0x00000000)  returns 0x00 (0000ms, 0749ms total)
T3118 001:135 JLINK_WriteReg(R12, 0x00000000)  returns 0x00 (0000ms, 0749ms total)
T3118 001:135 JLINK_WriteReg(R13 (SP), 0x20002000)  returns 0x00 (0000ms, 0749ms total)
T3118 001:135 JLINK_WriteReg(R14, 0x20000001)  returns 0x00 (0000ms, 0749ms total)
T3118 001:135 JLINK_WriteReg(R15 (PC), 0x20000090)  returns 0x00 (0000ms, 0749ms total)
T3118 001:135 JLINK_WriteReg(XPSR, 0x01000000)  returns 0x00 (0000ms, 0749ms total)
T3118 001:135 JLINK_WriteReg(MSP, 0x20002000)  returns 0x00 (0000ms, 0749ms total)
T3118 001:135 JLINK_WriteReg(PSP, 0x20002000)  returns 0x00 (0000ms, 0749ms total)
T3118 001:135 JLINK_WriteReg(CFBP, 0x00000000)  returns 0x00 (0000ms, 0749ms total)
T3118 001:135 JLINK_SetBPEx(Addr = 0x20000000, Type = 0xFFFFFFF2)  returns 0x0000000E (0000ms, 0749ms total)
T3118 001:135 JLINK_Go() -- CPU_ReadMem(4 bytes @ 0xE0001000) (0002ms, 0751ms total)
T3118 001:137 JLINK_IsHalted() -- CPU_ReadMem(2 bytes @ 0x20000000)  returns TRUE (0002ms, 0753ms total)
T3118 001:139 JLINK_ReadReg(R15 (PC))  returns 0x20000000 (0000ms, 0751ms total)
T3118 001:139 JLINK_ClrBPEx(BPHandle = 0x0000000E)  returns 0x00 (0000ms, 0751ms total)
T3118 001:139 JLINK_ReadReg(R0)  returns 0x00000000 (0000ms, 0751ms total)
T3118 001:194 JLINK_WriteMem(0x20000000, 0x0002 Bytes, ...) - Data: FE E7 -- CPU_WriteMem(2 bytes @ 0x20000000)  returns 0x02 (0001ms, 0752ms total)
T3118 001:195 JLINK_SetResetType(JLINKARM_CM3_RESET_TYPE_NORMAL)  returns JLINKARM_CM3_RESET_TYPE_NORMAL (0000ms, 0752ms total)
T3118 001:195 JLINK_Reset() -- CPU_WriteMem(4 bytes @ 0xE000EDF0) -- CPU_WriteMem(4 bytes @ 0xE000EDFC)Reset: Halt core after reset via DEMCR.VC_CORERESET. >0x35 TIF>Reset: Reset device via AIRCR.SYSRESETREQ. -- CPU_WriteMem(4 bytes @ 0xE000ED0C) >0x0D TIF> >0x28 TIF> -- CPU_ReadMem(4 bytes @ 0xE000EDF0) -- CPU_ReadMem(4 bytes @ 0xE000EDF0) -- CPU_WriteMem(4 bytes @ 0xE000EDF0) -- CPU_WriteMem(4 bytes @ 0xE000EDFC) -- CPU_ReadMem(4 bytes @ 0xE000EDF0) -- CPU_WriteMem(4 bytes @ 0xE0002000)
 -- CPU_ReadMem(4 bytes @ 0xE000EDFC) -- CPU_ReadMem(4 bytes @ 0xE0001000) (0066ms, 0818ms total)
T3118 001:261 JLINK_Go() -- CPU_ReadMem(4 bytes @ 0xE0001000) -- CPU_WriteMem(4 bytes @ 0xE0002008) -- CPU_WriteMem(4 bytes @ 0xE000200C) -- CPU_WriteMem(4 bytes @ 0xE0002010) -- CPU_WriteMem(4 bytes @ 0xE0002014) -- CPU_WriteMem(4 bytes @ 0xE0002018) -- CPU_WriteMem(4 bytes @ 0xE000201C) -- CPU_WriteMem(4 bytes @ 0xE0001004) (0002ms, 0820ms total)
T3118 001:274 JLINK_Close() -- CPU is running -- CPU_WriteMem(4 bytes @ 0xE0002008) -- CPU is running -- CPU_WriteMem(4 bytes @ 0xE000200C) -- CPU is running -- CPU_WriteMem(4 bytes @ 0xE0002010) -- CPU is running -- CPU_WriteMem(4 bytes @ 0xE0002014) -- CPU is running -- CPU_WriteMem(4 bytes @ 0xE0002018) -- CPU is running -- CPU_WriteMem(4 bytes @ 0xE000201C) >0x0D TIF> >0x28 TIF> >0x0D TIF> >0x28 TIF> >0x0D TIF> >0x28 TIF> >0x0D TIF> >0x28 TIF> >0x0D TIF> >0x28 TIF> >0x0D TIF> >0x28 TIF> >0x0D TIF>
 >0x28 TIF> >0x0D TIF> >0x28 TIF> >0x35 TIF> >0x0D TIF> >0x28 TIF> (0020ms, 0840ms total)
T3118 001:274  (0020ms, 0840ms total)
T3118 001:274 Closed (0020ms, 0840ms total)
